
**** 04/14/24 15:56:12 *********** Evaluation PSpice (Nov 1999) **************

 * C:\Users\felipe\Desktop\DEV\Circuitos Eltricos\LAB1\Lab 1-4.sch


 ****     CIRCUIT DESCRIPTION


******************************************************************************




* Schematics Version 9.1 - Web Update 1
* Thu Mar 28 16:52:17 2024



** Analysis setup **
.tran 0s 100ms 0 10us
.OP 


* From [PSPICE NETLIST] section of pspiceev.ini:
.lib "nom.lib"

.INC "Lab 1-4.net"

**** INCLUDING "Lab 1-4.net" ****
* Schematics Netlist *



D_D3         0 $N_0001 D1N4002 
D_D4         0 $N_0002 D1N4002 
D_D2         $N_0002 $N_0003 D1N4002 
D_D5         0 $N_0004 D1N750 
R_RL         0 $N_0004  587  
C_C1         0 $N_0003  400u  
V_Vac         $N_0001 $N_0002 DC 0 AC 12
+SIN 0 12 60 0 0 0
D_D1         $N_0001 $N_0003 D1N4002 
R_R1         $N_0003 $N_0004  60  

**** RESUMING "Lab 1-4.cir" ****
.INC "Lab 1-4.als"



**** INCLUDING "Lab 1-4.als" ****
* Schematics Aliases *

.ALIASES
D_D3            D3(1=0 2=$N_0001 )
D_D4            D4(1=0 2=$N_0002 )
D_D2            D2(1=$N_0002 2=$N_0003 )
D_D5            D5(1=0 2=$N_0004 )
R_RL            RL(1=0 2=$N_0004 )
C_C1            C1(1=0 2=$N_0003 )
V_Vac           Vac(+=$N_0001 -=$N_0002 )
D_D1            D1(1=$N_0001 2=$N_0003 )
R_R1            R1(1=$N_0003 2=$N_0004 )
.ENDALIASES


**** RESUMING "Lab 1-4.cir" ****
.probe


.END

**** 04/14/24 15:56:12 *********** Evaluation PSpice (Nov 1999) **************

 * C:\Users\felipe\Desktop\DEV\Circuitos Eltricos\LAB1\Lab 1-4.sch


 ****     Diode MODEL PARAMETERS


******************************************************************************




               D1N4002         D1N750          
          IS   14.110000E-09  880.500000E-18 
           N    1.984                        
         ISR  100.000000E-12    1.859000E-09 
         IKF   94.81                         
          BV  100.1             4.7          
         IBV   10                .020245     
         NBV                    1.6989       
        IBVL                    1.955600E-03 
        NBVL                   14.976        
          RS     .03389          .25         
          TT    4.761000E-06                 
         CJO   51.170000E-12  175.000000E-12 
          VJ     .3905           .75         
           M     .2762           .5516       
        TBV1                  -21.277000E-06 


**** 04/14/24 15:56:12 *********** Evaluation PSpice (Nov 1999) **************

 * C:\Users\felipe\Desktop\DEV\Circuitos Eltricos\LAB1\Lab 1-4.sch


 ****     SMALL SIGNAL BIAS SOLUTION       TEMPERATURE =   27.000 DEG C


******************************************************************************



 NODE   VOLTAGE     NODE   VOLTAGE     NODE   VOLTAGE     NODE   VOLTAGE


($N_0001) 1.030E-18                   ($N_0002) 1.030E-18                       

($N_0003) 645.8E-24                   ($N_0004) 575.5E-24                   




    VOLTAGE SOURCE CURRENTS
    NAME         CURRENT

    V_Vac        0.000E+00

    TOTAL POWER DISSIPATION   0.00E+00  WATTS


**** 04/14/24 15:56:12 *********** Evaluation PSpice (Nov 1999) **************

 * C:\Users\felipe\Desktop\DEV\Circuitos Eltricos\LAB1\Lab 1-4.sch


 ****     OPERATING POINT INFORMATION      TEMPERATURE =   27.000 DEG C


******************************************************************************






**** DIODES


NAME         D_D3        D_D4        D_D2        D_D5        D_D1      
MODEL        D1N4002     D1N4002     D1N4002     D1N750      D1N4002   
ID           0.00E+00    0.00E+00    0.00E+00   -0.00E+00    0.00E+00 
VD          -1.03E-18   -1.03E-18    1.03E-18   -5.76E-22    1.03E-18 
REQ          3.61E+06    3.61E+06    3.61E+06    2.78E+07    3.61E+06 
CAP          5.25E-11    5.25E-11    5.25E-11    1.75E-10    5.25E-11 
**** 04/14/24 15:56:12 *********** Evaluation PSpice (Nov 1999) **************

 * C:\Users\felipe\Desktop\DEV\Circuitos Eltricos\LAB1\Lab 1-4.sch


 ****     INITIAL TRANSIENT SOLUTION       TEMPERATURE =   27.000 DEG C


******************************************************************************



 NODE   VOLTAGE     NODE   VOLTAGE     NODE   VOLTAGE     NODE   VOLTAGE


($N_0001) 1.030E-18                   ($N_0002) 1.030E-18                       

($N_0003) 645.8E-24                   ($N_0004) 575.5E-24                   




    VOLTAGE SOURCE CURRENTS
    NAME         CURRENT

    V_Vac        0.000E+00

    TOTAL POWER DISSIPATION   0.00E+00  WATTS



          JOB CONCLUDED

          TOTAL JOB TIME             .33
