
**** 05/29/24 18:32:20 *********** Evaluation PSpice (Nov 1999) **************

 * C:\Users\felipe\Desktop\DEV\Circuitos Eltricos\Lab4\Amostrador-FPB-Final.sch


 ****     CIRCUIT DESCRIPTION


******************************************************************************




* Schematics Version 9.1 - Web Update 1
* Wed May 29 08:25:56 2024



** Analysis setup **
.tran 0s 10ms 0 10us
.OP 


* From [PSPICE NETLIST] section of pspiceev.ini:
.lib "nom.lib"

.INC "Amostrador-FPB-Final.net"

**** INCLUDING Amostrador-FPB-Final.net ****
* Schematics Netlist *



R_Rbb         $N_0002 $N_0001  10.75k  
D_D1         $N_0003 $N_0004 D1N4002 
D_D2         $N_0005 $N_0003 D1N4002 
C_C2         0 $N_0006  100n  
R_Rp1         $N_0004 $N_0007  100  
R_Rp2         $N_0007 $N_0005  9.9k  
R_R27         0 $N_0008  1k  
R_R26         $N_0008 $N_0009  1k  
R_R28         $N_0011 $N_0010  1k  
C_C6         0 $N_0010  160n  
R_Rc         $N_0013 $N_0012  250  
X_X11         0 $N_0007 $N_0014 $N_0012 $N_0006 $N_0007 $N_0003 $N_0012 555D
+  PARAMS: MAXFREQ=3E6
R_R24         $N_0003 $N_0012  1k  
V_Vdc         $N_0012 0 9V
Q_Q1         $N_0013 $N_0002 $N_0015 Q2N2222
R_R21         0 $N_0011  1k  
E_U1         $N_0009 0 VALUE {LIMIT(V($N_0010,$N_0008)*1E6,-15V,+15V)}
V_V7         $N_0015 $N_0011 DC 0 AC 0
+SIN 0 5V 200Hz 0 0 0
R_R3         $N_0014 $N_0001  10  
C_C1         0 $N_0007  3n  

**** RESUMING Amostrador-FPB-Final.cir ****
.INC "Amostrador-FPB-Final.als"



**** INCLUDING Amostrador-FPB-Final.als ****
* Schematics Aliases *

.ALIASES
R_Rbb           Rbb(1=$N_0002 2=$N_0001 )
D_D1            D1(1=$N_0003 2=$N_0004 )
D_D2            D2(1=$N_0005 2=$N_0003 )
C_C2            C2(1=0 2=$N_0006 )
R_Rp1           Rp1(1=$N_0004 2=$N_0007 )
R_Rp2           Rp2(1=$N_0007 2=$N_0005 )
R_R27           R27(1=0 2=$N_0008 )
R_R26           R26(1=$N_0008 2=$N_0009 )
R_R28           R28(1=$N_0011 2=$N_0010 )
C_C6            C6(1=0 2=$N_0010 )
R_Rc            Rc(1=$N_0013 2=$N_0012 )
X_X11           X11(GND=0 TRIGGER=$N_0007 OUTPUT=$N_0014 RESET=$N_0012
+  CONTROL=$N_0006 THRESHOLD=$N_0007 DISCHARGE=$N_0003 VCC=$N_0012 )
R_R24           R24(1=$N_0003 2=$N_0012 )
V_Vdc           Vdc(+=$N_0012 -=0 )
Q_Q1            Q1(c=$N_0013 b=$N_0002 e=$N_0015 )
R_R21           R21(1=0 2=$N_0011 )
E_U1            U1(OUT=$N_0009 +=$N_0010 -=$N_0008 )
V_V7            V7(+=$N_0015 -=$N_0011 )
R_R3            R3(1=$N_0014 2=$N_0001 )
C_C1            C1(1=0 2=$N_0007 )
.ENDALIASES


**** RESUMING Amostrador-FPB-Final.cir ****
.probe


.END


**** Generated AtoD and DtoA Interfaces ****

*
* Analog/Digital interface for node $N_0012
*
* Moving X_X11.u1:CLRBAR from analog node $N_0012 to new digital node $N_0012$AtoD
X$$N_0012_AtoD1
+ $N_0012
+ $N_0012$AtoD
+ $N_0012
+ 0
+ atod_555
+       PARAMS: CAPACITANCE=   0     
*
* Analog/Digital interface for node $N_0014
*
* Moving X_X11.u1:Q1 from analog node $N_0014 to new digital node $N_0014$DtoA
X$$N_0014_DtoA1
+ $N_0014$DtoA
+ $N_0014
+ $N_0012
+ 0
+ dtoa_555
+       PARAMS: DRVH=  96.4   DRVL= 104    CAPACITANCE=   0     
*
* Analog/Digital interface for node X_X11.qb
*
* Moving X_X11.u1:QBAR1 from analog node X_X11.qb to new digital node X_X11.qb$DtoA
X$X_X11.qb_DtoA1
+ X_X11.qb$DtoA
+ X_X11.qb
+ $N_0012
+ 0
+ dtoa_555
+       PARAMS: DRVH=  96.4   DRVL= 104    CAPACITANCE=   0     
*
* Analog/Digital interface power supply subcircuits
*

X$DIGIFPWR 0 DIGIFPWR

**** 05/29/24 18:32:20 *********** Evaluation PSpice (Nov 1999) **************

 * C:\Users\felipe\Desktop\DEV\Circuitos Eltricos\Lab4\Amostrador-FPB-Final.sch


 ****     Diode MODEL PARAMETERS


******************************************************************************




               D1N4002         
          IS   14.110000E-09 
           N    1.984        
         ISR  100.000000E-12 
         IKF   94.81         
          BV  100.1          
         IBV   10            
          RS     .03389      
          TT    4.761000E-06 
         CJO   51.170000E-12 
          VJ     .3905       
           M     .2762       


**** 05/29/24 18:32:20 *********** Evaluation PSpice (Nov 1999) **************

 * C:\Users\felipe\Desktop\DEV\Circuitos Eltricos\Lab4\Amostrador-FPB-Final.sch


 ****     BJT MODEL PARAMETERS


******************************************************************************




               Q2N2222         
               NPN             
          IS   14.340000E-15 
          BF  255.9          
          NF    1            
         VAF   74.03         
         IKF     .2847       
         ISE   14.340000E-15 
          NE    1.307        
          BR    6.092        
          NR    1            
          RB   10            
          RC    1            
         CJE   22.010000E-12 
         MJE     .377        
         CJC    7.306000E-12 
         MJC     .3416       
          TF  411.100000E-12 
         XTF    3            
         VTF    1.7          
         ITF     .6          
          TR   46.910000E-09 
         XTB    1.5          
          CN    2.42         
           D     .87         


**** 05/29/24 18:32:20 *********** Evaluation PSpice (Nov 1999) **************

 * C:\Users\felipe\Desktop\DEV\Circuitos Eltricos\Lab4\Amostrador-FPB-Final.sch


 ****     MOSFET MODEL PARAMETERS


******************************************************************************




               X_X11.nchan     
               NMOS            
       LEVEL    1            
           L  100.000000E-06 
           W  100.000000E-06 
         VTO    0            
          KP   20.000000E-06 
       GAMMA    0            
         PHI     .6          
      LAMBDA    0            
          IS   10.000000E-15 
          JS    0            
          PB     .8          
        PBSW     .8          
          CJ    0            
        CJSW    0            
        CGSO    1.000000E-12 
        CGDO    1.000000E-12 
        CGBO    1.000000E-12 
         TOX    0            
          XJ    0            
       UCRIT   10.000000E+03 
      DIOMOD    1            
         VFB    0            
        LETA    0            
        WETA    0            
          U0    0            
        TEMP    0            
         VDD    0            
       XPART    0            


**** 05/29/24 18:32:20 *********** Evaluation PSpice (Nov 1999) **************

 * C:\Users\felipe\Desktop\DEV\Circuitos Eltricos\Lab4\Amostrador-FPB-Final.sch


 ****     Digital Input MODEL PARAMETERS


******************************************************************************




               din555          
        FILE DSO_DTOA        
      FORMAT    6            
    TIMESTEP  100.000000E-12 
      S0NAME 0               
       S0TSW  700.000000E-12 
       S0RLO  100            
       S0RHI    1.000000E+06 
      S1NAME 1               
       S1TSW  700.000000E-12 
       S1RLO    1.000000E+06 
       S1RHI  300            
      S2NAME x               
       S2TSW  700.000000E-12 
       S2RLO  200            
       S2RHI  200            
      S3NAME r               
       S3TSW  700.000000E-12 
       S3RLO  200            
       S3RHI  200            
      S4NAME f               
       S4TSW  700.000000E-12 
       S4RLO  200            
       S4RHI  200            
      S5NAME z               
       S5TSW  700.000000E-12 
       S5RLO  200.000000E+03 
       S5RHI  200.000000E+03 


**** 05/29/24 18:32:20 *********** Evaluation PSpice (Nov 1999) **************

 * C:\Users\felipe\Desktop\DEV\Circuitos Eltricos\Lab4\Amostrador-FPB-Final.sch


 ****     Digital Output MODEL PARAMETERS


******************************************************************************




               X_X11.cmp       do555           
        FILE DSO_ATOD        DSO_ATOD        
      FORMAT    6               6            
     CHGONLY    1               1            
    TIMESTEP  100.000000E-12  100.000000E-12 
      S0NAME 0               X               
       S0VHI                    2            
       S0VLO -500                .8          
      S1NAME 1               0               
       S1VHI  500                .8          
       S1VLO                   -1.5          
      S2NAME                 R               
       S2VHI                    1.4          
       S2VLO                     .8          
      S3NAME                 R               
       S3VHI                    2            
       S3VLO                    1.3          
      S4NAME                 X               
       S4VHI                    2            
       S4VLO                     .8          
      S5NAME                 1               
       S5VHI                   50            
       S5VLO                    2            
      S6NAME                 F               
       S6VHI                    2            
       S6VLO                    1.3          
      S7NAME                 F               
       S7VHI                    1.4          
       S7VLO                     .8          


**** 05/29/24 18:32:20 *********** Evaluation PSpice (Nov 1999) **************

 * C:\Users\felipe\Desktop\DEV\Circuitos Eltricos\Lab4\Amostrador-FPB-Final.sch


 ****     Digital Gated FF MODEL PARAMETERS


******************************************************************************




               X_X11.t_srff    
    TPDQLHMN    0            
    TPDQLHTY    0            
    TPDQLHMX    0            
    TPDQHLMN    0            
    TPDQHLTY    0            
    TPDQHLMX    0            
    TPGQLHMN    0            
    TPGQLHTY    0            
    TPGQLHMX    0            
    TPGQHLMN    0            
    TPGQHLTY    0            
    TPGQHLMX    0            
   TPPCQLHMN   48.000000E-09 
   TPPCQLHTY  120.000000E-09 
   TPPCQLHMX  192.000000E-09 
   TPPCQHLMN    0            
   TPPCQHLTY    0            
   TPPCQHLMX    0            
      TWGHMN    0            
      TWGHTY    0            
      TWGHMX    0            
     TWPCLMN    0            
     TWPCLTY    0            
     TWPCLMX    0            
     TSUDGMN    0            
     TSUDGTY    0            
     TSUDGMX    0            
   TSUPCGHMN    0            
   TSUPCGHTY    0            
   TSUPCGHMX    0            
      THDGMN    0            
      THDGTY    0            
      THDGMX    0            


**** 05/29/24 18:32:20 *********** Evaluation PSpice (Nov 1999) **************

 * C:\Users\felipe\Desktop\DEV\Circuitos Eltricos\Lab4\Amostrador-FPB-Final.sch


 ****     Digital Delay Line MODEL PARAMETERS


******************************************************************************




               X_X11.dlymod    
       DLYMN  166.666700E-09 
       DLYTY  166.666700E-09 
       DLYMX  166.666700E-09 


**** 05/29/24 18:32:20 *********** Evaluation PSpice (Nov 1999) **************

 * C:\Users\felipe\Desktop\DEV\Circuitos Eltricos\Lab4\Amostrador-FPB-Final.sch


 ****     Digital IO  MODEL PARAMETERS


******************************************************************************




               X_X11.io_555    io_std          io_stm          
        DRVL  104             104               0            
        DRVH   96.4            96.4             0            
       AtoD1 atod_555        AtoD_STD                        
       AtoD2 atod_555        AtoD_STD_NX                     
       AtoD3 atod_555        AtoD_STD                        
       AtoD4 atod_555        AtoD_STD_NX                     
       DtoA1 dtoa_555        DtoA_STD        DtoA_STM        
       DtoA2 dtoa_555        DtoA_STD        DtoA_STM        
       DtoA3 dtoa_555        DtoA_STD        DtoA_STM        
       DtoA4 dtoa_555        DtoA_STD        DtoA_STM        
      TSWHL1                    1.373000E-09                 
      TSWHL2                    1.346000E-09                 
      TSWHL3                    1.511000E-09                 
      TSWHL4                    1.487000E-09                 
      TSWLH1                    3.382000E-09                 
      TSWLH2                    3.424000E-09                 
      TSWLH3                    3.517000E-09                 
      TSWLH4                    3.564000E-09                 
       TPWRT  100.000000E+03  100.000000E+03  100.000000E+03 


**** 05/29/24 18:32:20 *********** Evaluation PSpice (Nov 1999) **************

 * C:\Users\felipe\Desktop\DEV\Circuitos Eltricos\Lab4\Amostrador-FPB-Final.sch


 ****     SMALL SIGNAL BIAS SOLUTION       TEMPERATURE =   27.000 DEG C


******************************************************************************



 NODE   VOLTAGE     NODE   VOLTAGE     NODE   VOLTAGE     NODE   VOLTAGE


($G_DGND)    0.0000                   ($G_DPWR)    5.0000                       

($N_0001)    8.9652                   ($N_0002)    7.8516                       

($N_0003)    9.0000                   ($N_0004)    9.0000                       

($N_0005)    9.0000                   ($N_0006)    6.0000                       

($N_0007)    9.0000                   ($N_0008)    7.1519                       

($N_0009)   14.3040                   ($N_0010)    7.1519                       

($N_0011)    7.1519                   ($N_0012)    9.0000                       

($N_0013)    7.2379                   ($N_0014)    8.9662                       

($N_0015)    7.1519                   (X_X11.qb) 899.9E-06                      

(X_X11.botm)    3.0000                



 DGTL NODE : STATE  DGTL NODE : STATE  DGTL NODE : STATE  DGTL NODE : STATE


( X_X11.s) : 0     (X_X11.rd) : 1     (X_X11.sd) : 0     ($N_0012$AtoD) : 1     

(X_X11.hi) : 1     (X_X11.strt) : 0   ( X_X11.r) : 1     ($N_0014$DtoA) : 1     

(X_X11.qb$DtoA) : 0                   




    VOLTAGE SOURCE CURRENTS
    NAME         CURRENT

    V_Vdc       -7.401E-03
    V_V7         7.152E-03
    X$DIGIFPWR.VDPWR  -5.000E-06
    X$DIGIFPWR.VDGND  -5.000E-06

    TOTAL POWER DISSIPATION   6.66E-02  WATTS


**** 05/29/24 18:32:20 *********** Evaluation PSpice (Nov 1999) **************

 * C:\Users\felipe\Desktop\DEV\Circuitos Eltricos\Lab4\Amostrador-FPB-Final.sch


 ****     OPERATING POINT INFORMATION      TEMPERATURE =   27.000 DEG C


******************************************************************************






**** VOLTAGE-CONTROLLED VOLTAGE SOURCES


NAME         E_U1      
V-SOURCE     1.430E+01
I-SOURCE    -7.152E-03


**** DIODES


NAME         D_D1        D_D2      
MODEL        D1N4002     D1N4002   
ID           4.50E-12   -4.49E-12 
VD           1.62E-05   -1.62E-05 
REQ          3.61E+06    3.61E+06 
CAP          5.25E-11    5.25E-11 


**** BIPOLAR JUNCTION TRANSISTORS


NAME         Q_Q1      
MODEL        Q2N2222   
IB           1.04E-04 
IC           7.05E-03 
VBE          7.00E-01 
VBC          6.14E-01 
VCE          8.60E-02 
BETADC       6.80E+01 
GM           2.68E-01 
RPI          6.38E+02 
RX           1.00E+01 
RO           7.29E+01 
CBE          1.54E-10 
CBC          6.73E-10 
CJS          0.00E+00 
BETAAC       1.71E+02 
CBX/CBX2     0.00E+00 
FT/FT2       5.16E+07 




**** MOSFETS


NAME         X_X11.m1              
MODEL        X_X11.nchan           
ID           4.06E-09             
VGS          9.00E-04             
VDS          9.00E+00             
VBS          0.00E+00             
VTH          0.00E+00             
VDSAT        9.00E-04             
Lin0/Sat1   -1.00E+00             
if          -1.00E+00             
ir          -1.00E+00             
TAU         -1.00E+00             
GM           9.00E-06             
GDS          0.00E+00             
GMB          0.00E+00             
CBD          0.00E+00             
CBS          0.00E+00             
CGSOV        1.00E-15             
CGDOV        1.00E-15             
CGBOV        2.00E-18             
CGS          0.00E+00             
CGD          0.00E+00             
CGB          0.00E+00             
**** 05/29/24 18:32:20 *********** Evaluation PSpice (Nov 1999) **************

 * C:\Users\felipe\Desktop\DEV\Circuitos Eltricos\Lab4\Amostrador-FPB-Final.sch


 ****     INITIAL TRANSIENT SOLUTION       TEMPERATURE =   27.000 DEG C


******************************************************************************



 NODE   VOLTAGE     NODE   VOLTAGE     NODE   VOLTAGE     NODE   VOLTAGE


($G_DGND)    0.0000                   ($G_DPWR)    5.0000                       

($N_0001)    8.9652                   ($N_0002)    7.8516                       

($N_0003)    9.0000                   ($N_0004)    9.0000                       

($N_0005)    9.0000                   ($N_0006)    6.0000                       

($N_0007)    9.0000                   ($N_0008)    7.1519                       

($N_0009)   14.3040                   ($N_0010)    7.1519                       

($N_0011)    7.1519                   ($N_0012)    9.0000                       

($N_0013)    7.2379                   ($N_0014)    8.9662                       

($N_0015)    7.1519                   (X_X11.qb) 899.9E-06                      

(X_X11.botm)    3.0000                



 DGTL NODE : STATE  DGTL NODE : STATE  DGTL NODE : STATE  DGTL NODE : STATE


( X_X11.s) : 0     (X_X11.rd) : 1     (X_X11.sd) : 0     ($N_0012$AtoD) : 1     

(X_X11.hi) : 1     (X_X11.strt) : 0   ( X_X11.r) : 1     ($N_0014$DtoA) : 1     

(X_X11.qb$DtoA) : 0                   




    VOLTAGE SOURCE CURRENTS
    NAME         CURRENT

    V_Vdc       -7.401E-03
    V_V7         7.152E-03
    X$DIGIFPWR.VDPWR  -5.000E-06
    X$DIGIFPWR.VDGND  -5.000E-06

    TOTAL POWER DISSIPATION   6.66E-02  WATTS



          JOB CONCLUDED

          TOTAL JOB TIME            4.13
