
**** 05/29/24 18:01:28 *********** Evaluation PSpice (Nov 1999) **************

 * C:\Users\felipe\Desktop\DEV\Circuitos Eltricos\Lab4\Cod-Prioridade-Final.sch


 ****     CIRCUIT DESCRIPTION


******************************************************************************




* Schematics Version 9.1 - Web Update 1
* Wed May 29 18:01:24 2024



** Analysis setup **
.tran 0 10ms 0 1ms
.OP 


* From [PSPICE NETLIST] section of pspiceev.ini:
.lib "nom.lib"

.INC "Cod-Prioridade-Final.net"

**** INCLUDING Cod-Prioridade-Final.net ****
* Schematics Netlist *



R_R44         0 $N_0001  1k  
R_R43         0 $N_0002  1k  
R_R49         0 $N_0003  1k  
X_U12         0 $N_0007 $N_0008 $N_0009 $N_0010 $N_0011 $N_0012 $N_0013 0
+  $N_0005 $N_0004 $N_0006 $N_0002 $N_0001 $G_DPWR $G_DGND 74148 PARAMS:
+ IO_LEVEL=0 MNTYMXDLY=0
R_R48         0 $N_0014  1k  
R_R50         0 $N_0015  1k  
X_U34A         $N_0005 $N_0014 $G_DPWR $G_DGND 7404 PARAMS:
+ IO_LEVEL=0 MNTYMXDLY=0
X_U35A         $N_0004 $N_0003 $G_DPWR $G_DGND 7404 PARAMS:
+ IO_LEVEL=0 MNTYMXDLY=0
X_U36A         $N_0006 $N_0015 $G_DPWR $G_DGND 7404 PARAMS:
+ IO_LEVEL=0 MNTYMXDLY=0
V_C1         $N_0007 0 0
V_C2         $N_0008 0 0
V_C3         $N_0009 0 0
V_C4         $N_0010 0 0
V_C5         $N_0011 0 0
V_C6         $N_0012 0 0
V_C7         $N_0013 0 0

**** RESUMING Cod-Prioridade-Final.cir ****
.INC "Cod-Prioridade-Final.als"



**** INCLUDING Cod-Prioridade-Final.als ****
* Schematics Aliases *

.ALIASES
R_R44           R44(1=0 2=$N_0001 )
R_R43           R43(1=0 2=$N_0002 )
R_R49           R49(1=0 2=$N_0003 )
X_U12           U12(IN0=0 IN1=$N_0007 IN2=$N_0008 IN3=$N_0009 IN4=$N_0010
+  IN5=$N_0011 IN6=$N_0012 IN7=$N_0013 EI=0 A0=$N_0005 A1=$N_0004 A2=$N_0006
+  GS=$N_0002 EO=$N_0001 PWR=$G_DPWR GND=$G_DGND )
R_R48           R48(1=0 2=$N_0014 )
R_R50           R50(1=0 2=$N_0015 )
X_U34A          U34A(A=$N_0005 Y=$N_0014 PWR=$G_DPWR GND=$G_DGND )
X_U35A          U35A(A=$N_0004 Y=$N_0003 PWR=$G_DPWR GND=$G_DGND )
X_U36A          U36A(A=$N_0006 Y=$N_0015 PWR=$G_DPWR GND=$G_DGND )
V_C1            C1(+=$N_0007 -=0 )
V_C2            C2(+=$N_0008 -=0 )
V_C3            C3(+=$N_0009 -=0 )
V_C4            C4(+=$N_0010 -=0 )
V_C5            C5(+=$N_0011 -=0 )
V_C6            C6(+=$N_0012 -=0 )
V_C7            C7(+=$N_0013 -=0 )
_    _($G_DGND=$G_DGND)
_    _($G_DPWR=$G_DPWR)
.ENDALIASES


**** RESUMING Cod-Prioridade-Final.cir ****
.probe


.END


**** Generated AtoD and DtoA Interfaces ****

*
* Analog/Digital interface for node 0
*
* Moving X_U12.U148LOG:IN9 from analog node 0 to new digital node 0$AtoD
X$0_AtoD1
+ 0
+ 0$AtoD
+ $G_DPWR
+ $G_DGND
+ AtoD_STD
+       PARAMS: CAPACITANCE=   0     
* Moving X_U12.U148LOG:IN1 from analog node 0 to new digital node 0$AtoD2
X$0_AtoD2
+ 0
+ 0$AtoD2
+ $G_DPWR
+ $G_DGND
+ AtoD_STD
+       PARAMS: CAPACITANCE=   0     
*
* Analog/Digital interface for node $N_0001
*
* Moving X_U12.U148DLY:OUT5 from analog node $N_0001 to new digital node $N_0001$DtoA
X$$N_0001_DtoA1
+ $N_0001$DtoA
+ $N_0001
+ $G_DPWR
+ $G_DGND
+ DtoA_STD
+       PARAMS: DRVH=  96.4   DRVL= 104    CAPACITANCE=   0     
*
* Analog/Digital interface for node $N_0002
*
* Moving X_U12.U148DLY:OUT4 from analog node $N_0002 to new digital node $N_0002$DtoA
X$$N_0002_DtoA1
+ $N_0002$DtoA
+ $N_0002
+ $G_DPWR
+ $G_DGND
+ DtoA_STD
+       PARAMS: DRVH=  96.4   DRVL= 104    CAPACITANCE=   0     
*
* Analog/Digital interface for node $N_0003
*
* Moving X_U35A.U1:OUT1 from analog node $N_0003 to new digital node $N_0003$DtoA
X$$N_0003_DtoA1
+ $N_0003$DtoA
+ $N_0003
+ $G_DPWR
+ $G_DGND
+ DtoA_STD
+       PARAMS: DRVH=  96.4   DRVL= 104    CAPACITANCE=   0     
*
* Analog/Digital interface for node $N_0014
*
* Moving X_U34A.U1:OUT1 from analog node $N_0014 to new digital node $N_0014$DtoA
X$$N_0014_DtoA1
+ $N_0014$DtoA
+ $N_0014
+ $G_DPWR
+ $G_DGND
+ DtoA_STD
+       PARAMS: DRVH=  96.4   DRVL= 104    CAPACITANCE=   0     
*
* Analog/Digital interface for node $N_0015
*
* Moving X_U36A.U1:OUT1 from analog node $N_0015 to new digital node $N_0015$DtoA
X$$N_0015_DtoA1
+ $N_0015$DtoA
+ $N_0015
+ $G_DPWR
+ $G_DGND
+ DtoA_STD
+       PARAMS: DRVH=  96.4   DRVL= 104    CAPACITANCE=   0     
*
* Analog/Digital interface for node $N_0007
*
* Moving X_U12.U148LOG:IN2 from analog node $N_0007 to new digital node $N_0007$AtoD
X$$N_0007_AtoD1
+ $N_0007
+ $N_0007$AtoD
+ $G_DPWR
+ $G_DGND
+ AtoD_STD
+       PARAMS: CAPACITANCE=   0     
*
* Analog/Digital interface for node $N_0008
*
* Moving X_U12.U148LOG:IN3 from analog node $N_0008 to new digital node $N_0008$AtoD
X$$N_0008_AtoD1
+ $N_0008
+ $N_0008$AtoD
+ $G_DPWR
+ $G_DGND
+ AtoD_STD
+       PARAMS: CAPACITANCE=   0     
*
* Analog/Digital interface for node $N_0009
*
* Moving X_U12.U148LOG:IN4 from analog node $N_0009 to new digital node $N_0009$AtoD
X$$N_0009_AtoD1
+ $N_0009
+ $N_0009$AtoD
+ $G_DPWR
+ $G_DGND
+ AtoD_STD
+       PARAMS: CAPACITANCE=   0     
*
* Analog/Digital interface for node $N_0010
*
* Moving X_U12.U148LOG:IN5 from analog node $N_0010 to new digital node $N_0010$AtoD
X$$N_0010_AtoD1
+ $N_0010
+ $N_0010$AtoD
+ $G_DPWR
+ $G_DGND
+ AtoD_STD
+       PARAMS: CAPACITANCE=   0     
*
* Analog/Digital interface for node $N_0011
*
* Moving X_U12.U148LOG:IN6 from analog node $N_0011 to new digital node $N_0011$AtoD
X$$N_0011_AtoD1
+ $N_0011
+ $N_0011$AtoD
+ $G_DPWR
+ $G_DGND
+ AtoD_STD
+       PARAMS: CAPACITANCE=   0     
*
* Analog/Digital interface for node $N_0012
*
* Moving X_U12.U148LOG:IN7 from analog node $N_0012 to new digital node $N_0012$AtoD
X$$N_0012_AtoD1
+ $N_0012
+ $N_0012$AtoD
+ $G_DPWR
+ $G_DGND
+ AtoD_STD
+       PARAMS: CAPACITANCE=   0     
*
* Analog/Digital interface for node $N_0013
*
* Moving X_U12.U148LOG:IN8 from analog node $N_0013 to new digital node $N_0013$AtoD
X$$N_0013_AtoD1
+ $N_0013
+ $N_0013$AtoD
+ $G_DPWR
+ $G_DGND
+ AtoD_STD
+       PARAMS: CAPACITANCE=   0     
*
* Analog/Digital interface power supply subcircuits
*

X$DIGIFPWR 0 DIGIFPWR

**** 05/29/24 18:01:28 *********** Evaluation PSpice (Nov 1999) **************

 * C:\Users\felipe\Desktop\DEV\Circuitos Eltricos\Lab4\Cod-Prioridade-Final.sch


 ****     Diode MODEL PARAMETERS


******************************************************************************




               D74CLMP         D74             
          IS    1.000000E-15  100.000000E-18 
          RS    2              25            
         CJO    2.000000E-12    2.000000E-12 


**** 05/29/24 18:01:28 *********** Evaluation PSpice (Nov 1999) **************

 * C:\Users\felipe\Desktop\DEV\Circuitos Eltricos\Lab4\Cod-Prioridade-Final.sch


 ****     BJT MODEL PARAMETERS


******************************************************************************




               Q74             
               NPN             
          IS  100.000000E-18 
          BF   49            
          NF    1            
         ISE  100.000000E-18 
          BR     .03         
          NR    1            
         ISC  400.000000E-18 
          RB   50            
          RC   20            
         CJE    1.000000E-12 
         VJE     .9          
         MJE     .5          
         CJC  500.000000E-15 
         VJC     .8          
         CJS    3.000000E-12 
         VJS     .7          
         MJS     .33         
          TF  200.000000E-12 
          TR   10.000000E-09 
          CN    2.42         
           D     .87         


**** 05/29/24 18:01:28 *********** Evaluation PSpice (Nov 1999) **************

 * C:\Users\felipe\Desktop\DEV\Circuitos Eltricos\Lab4\Cod-Prioridade-Final.sch


 ****     Digital Input MODEL PARAMETERS


******************************************************************************




               DIN74           
        FILE DSO_DTOA        
      FORMAT    6            
    TIMESTEP  100.000000E-12 
      S0NAME 0               
       S0TSW    3.500000E-09 
       S0RLO    7.13         
       S0RHI  389            
      S1NAME 1               
       S1TSW    5.500000E-09 
       S1RLO  467            
       S1RHI  200            
      S2NAME X               
       S2TSW    3.500000E-09 
       S2RLO   42.9          
       S2RHI  116            
      S3NAME R               
       S3TSW    3.500000E-09 
       S3RLO   42.9          
       S3RHI  116            
      S4NAME F               
       S4TSW    3.500000E-09 
       S4RLO   42.9          
       S4RHI  116            
      S5NAME Z               
       S5TSW    3.500000E-09 
       S5RLO  200.000000E+03 
       S5RHI  200.000000E+03 


**** 05/29/24 18:01:28 *********** Evaluation PSpice (Nov 1999) **************

 * C:\Users\felipe\Desktop\DEV\Circuitos Eltricos\Lab4\Cod-Prioridade-Final.sch


 ****     Digital Output MODEL PARAMETERS


******************************************************************************




               DO74            
        FILE DSO_ATOD        
      FORMAT    6            
     CHGONLY    1            
    TIMESTEP  100.000000E-12 
      S0NAME X               
       S0VHI    2            
       S0VLO     .8          
      S1NAME 0               
       S1VHI     .8          
       S1VLO   -1.5          
      S2NAME R               
       S2VHI    1.4          
       S2VLO     .8          
      S3NAME R               
       S3VHI    2            
       S3VLO    1.3          
      S4NAME X               
       S4VHI    2            
       S4VLO     .8          
      S5NAME 1               
       S5VHI    7            
       S5VLO    2            
      S6NAME F               
       S6VHI    2            
       S6VLO    1.3          
      S7NAME F               
       S7VHI    1.4          
       S7VLO     .8          


**** 05/29/24 18:01:28 *********** Evaluation PSpice (Nov 1999) **************

 * C:\Users\felipe\Desktop\DEV\Circuitos Eltricos\Lab4\Cod-Prioridade-Final.sch


 ****     Digital Gate MODEL PARAMETERS


******************************************************************************




               D0_GATE         D_04            
      TPLHMN    0               4.800000E-09 
      TPLHTY    0              12.000000E-09 
      TPLHMX    0              22.000000E-09 
      TPHLMN    0               3.200000E-09 
      TPHLTY    0               8.000000E-09 
      TPHLMX    0              15.000000E-09 


**** 05/29/24 18:01:28 *********** Evaluation PSpice (Nov 1999) **************

 * C:\Users\felipe\Desktop\DEV\Circuitos Eltricos\Lab4\Cod-Prioridade-Final.sch


 ****     Digital IO  MODEL PARAMETERS


******************************************************************************




               IO_STD          
        DRVL  104            
        DRVH   96.4          
       AtoD1 AtoD_STD        
       AtoD2 AtoD_STD_NX     
       AtoD3 AtoD_STD        
       AtoD4 AtoD_STD_NX     
       DtoA1 DtoA_STD        
       DtoA2 DtoA_STD        
       DtoA3 DtoA_STD        
       DtoA4 DtoA_STD        
      TSWHL1    1.373000E-09 
      TSWHL2    1.346000E-09 
      TSWHL3    1.511000E-09 
      TSWHL4    1.487000E-09 
      TSWLH1    3.382000E-09 
      TSWLH2    3.424000E-09 
      TSWLH3    3.517000E-09 
      TSWLH4    3.564000E-09 
       TPWRT  100.000000E+03 


**** 05/29/24 18:01:28 *********** Evaluation PSpice (Nov 1999) **************

 * C:\Users\felipe\Desktop\DEV\Circuitos Eltricos\Lab4\Cod-Prioridade-Final.sch


 ****     SMALL SIGNAL BIAS SOLUTION       TEMPERATURE =   27.000 DEG C


******************************************************************************



 NODE   VOLTAGE     NODE   VOLTAGE     NODE   VOLTAGE     NODE   VOLTAGE


($G_DGND)    0.0000                   ($G_DPWR)    5.0000                       

($N_0001)    3.0708                   ($N_0002)     .0894                       

($N_0003)    3.0708                   ($N_0007)    0.0000                       

($N_0008)    0.0000                   ($N_0009)    0.0000                       

($N_0010)    0.0000                   ($N_0011)    0.0000                       

($N_0012)    0.0000                   ($N_0013)    0.0000                       

($N_0014)    3.0708                   ($N_0015)    3.0708                       

(X$0_AtoD1.1)     .0915               (X$0_AtoD1.2)     .0457                   

(X$0_AtoD1.3)     .8277               (X$0_AtoD2.1)     .0915                   

(X$0_AtoD2.2)     .0457               (X$0_AtoD2.3)     .8277                   

(X$$N_0007_AtoD1.1)     .0915         (X$$N_0007_AtoD1.2)     .0457             

(X$$N_0007_AtoD1.3)     .8277         (X$$N_0008_AtoD1.1)     .0915             

(X$$N_0008_AtoD1.2)     .0457         (X$$N_0008_AtoD1.3)     .8277             

(X$$N_0009_AtoD1.1)     .0915         (X$$N_0009_AtoD1.2)     .0457             

(X$$N_0009_AtoD1.3)     .8277         (X$$N_0010_AtoD1.1)     .0915             

(X$$N_0010_AtoD1.2)     .0457         (X$$N_0010_AtoD1.3)     .8277             

(X$$N_0011_AtoD1.1)     .0915         (X$$N_0011_AtoD1.2)     .0457             

(X$$N_0011_AtoD1.3)     .8277         (X$$N_0012_AtoD1.1)     .0915             

(X$$N_0012_AtoD1.2)     .0457         (X$$N_0012_AtoD1.3)     .8277             

(X$$N_0013_AtoD1.1)     .0915         (X$$N_0013_AtoD1.2)     .0457             

(X$$N_0013_AtoD1.3)     .8277         



 DGTL NODE : STATE  DGTL NODE : STATE  DGTL NODE : STATE  DGTL NODE : STATE


($N_0003$DtoA) : 1                    ($N_0013$AtoD) : 0                        

( $N_0004) : 0     (X_U12.GS) : 0     (X_U12.IN5) : 0    (X_U12.IN2) : 0        

($N_0002$DtoA) : 0                    ($N_0012$AtoD) : 0                        

($N_0009$AtoD) : 0                    ($N_0007$AtoD) : 0                        

( $N_0005) : 0     ($N_0015$DtoA) : 1                    ( $N_0006) : 0         

($N_0001$DtoA) : 1                    ($N_0011$AtoD) : 0                        

(X_U12.A0) : 0     (X_U12.IN6) : 0    (  0$AtoD) : 0     (X_U12.EO) : 1         

(X_U12.IN3) : 0    (X_U12.IN0) : 0    ($N_0008$AtoD) : 0                        

($N_0014$DtoA) : 1                    ($N_0010$AtoD) : 0                        

(X_U12.A1) : 0     (X_U12.IN7) : 0    (X_U12.A2) : 0     (X_U12.IN4) : 0        

(X_U12.EI) : 0     (X_U12.IN1) : 0    ( 0$AtoD2) : 0     




    VOLTAGE SOURCE CURRENTS
    NAME         CURRENT

    V_C1         1.043E-03
    V_C2         1.043E-03
    V_C3         1.043E-03
    V_C4         1.043E-03
    V_C5         1.043E-03
    V_C6         1.043E-03
    V_C7         1.043E-03
    X$DIGIFPWR.VDPWR  -6.060E-02
    X$DIGIFPWR.VDGND  -2.177E-02

    TOTAL POWER DISSIPATION   3.03E-01  WATTS


**** 05/29/24 18:01:28 *********** Evaluation PSpice (Nov 1999) **************

 * C:\Users\felipe\Desktop\DEV\Circuitos Eltricos\Lab4\Cod-Prioridade-Final.sch


 ****     OPERATING POINT INFORMATION      TEMPERATURE =   27.000 DEG C


******************************************************************************






**** DIODES


NAME         X$0_AtoD1.D0            X$0_AtoD1.D1          
MODEL        D74CLMP                 D74                   
ID           0.00E+00                4.62E-14             
VD           0.00E+00                4.57E-02             
REQ          9.63E+11                9.78E+11             
CAP          2.00E-12                2.05E-12             

NAME         X$0_AtoD1.D2            X$0_AtoD2.D0          
MODEL        D74                     D74CLMP               
ID           4.62E-14                0.00E+00             
VD           4.57E-02                0.00E+00             
REQ          9.78E+11                9.63E+11             
CAP          2.05E-12                2.00E-12             

NAME         X$0_AtoD2.D1            X$0_AtoD2.D2          
MODEL        D74                     D74                   
ID           4.62E-14                4.62E-14             
VD           4.57E-02                4.57E-02             
REQ          9.78E+11                9.78E+11             
CAP          2.05E-12                2.05E-12             

NAME         X$$N_0007_AtoD1.D0      X$$N_0007_AtoD1.D1    
MODEL        D74CLMP                 D74                   
ID           0.00E+00                4.62E-14             
VD           0.00E+00                4.57E-02             
REQ          9.63E+11                9.78E+11             
CAP          2.00E-12                2.05E-12             

NAME         X$$N_0007_AtoD1.D2      X$$N_0008_AtoD1.D0    
MODEL        D74                     D74CLMP               
ID           4.62E-14                0.00E+00             
VD           4.57E-02                0.00E+00             
REQ          9.78E+11                9.63E+11             
CAP          2.05E-12                2.00E-12             

NAME         X$$N_0008_AtoD1.D1      X$$N_0008_AtoD1.D2    
MODEL        D74                     D74                   
ID           4.62E-14                4.62E-14             
VD           4.57E-02                4.57E-02             
REQ          9.78E+11                9.78E+11             
CAP          2.05E-12                2.05E-12             

NAME         X$$N_0009_AtoD1.D0      X$$N_0009_AtoD1.D1    
MODEL        D74CLMP                 D74                   
ID           0.00E+00                4.62E-14             
VD           0.00E+00                4.57E-02             
REQ          9.63E+11                9.78E+11             
CAP          2.00E-12                2.05E-12             

NAME         X$$N_0009_AtoD1.D2      X$$N_0010_AtoD1.D0    
MODEL        D74                     D74CLMP               
ID           4.62E-14                0.00E+00             
VD           4.57E-02                0.00E+00             
REQ          9.78E+11                9.63E+11             
CAP          2.05E-12                2.00E-12             

NAME         X$$N_0010_AtoD1.D1      X$$N_0010_AtoD1.D2    
MODEL        D74                     D74                   
ID           4.62E-14                4.62E-14             
VD           4.57E-02                4.57E-02             
REQ          9.78E+11                9.78E+11             
CAP          2.05E-12                2.05E-12             

NAME         X$$N_0011_AtoD1.D0      X$$N_0011_AtoD1.D1    
MODEL        D74CLMP                 D74                   
ID           0.00E+00                4.62E-14             
VD           0.00E+00                4.57E-02             
REQ          9.63E+11                9.78E+11             
CAP          2.00E-12                2.05E-12             

NAME         X$$N_0011_AtoD1.D2      X$$N_0012_AtoD1.D0    
MODEL        D74                     D74CLMP               
ID           4.62E-14                0.00E+00             
VD           4.57E-02                0.00E+00             
REQ          9.78E+11                9.63E+11             
CAP          2.05E-12                2.00E-12             

NAME         X$$N_0012_AtoD1.D1      X$$N_0012_AtoD1.D2    
MODEL        D74                     D74                   
ID           4.62E-14                4.62E-14             
VD           4.57E-02                4.57E-02             
REQ          9.78E+11                9.78E+11             
CAP          2.05E-12                2.05E-12             

NAME         X$$N_0013_AtoD1.D0      X$$N_0013_AtoD1.D1    
